Circuit: * C:\Users\chait\Documents\WSL\IFE_2019_Hardware\SPICE Sims\PMOS+NMOS+PTC Discharge\DischargeNMOSOnly.asc

Direct Newton iteration for .op point succeeded.
Semiconductor Device Operating Points:
                        --- Diodes ---
Name:    d:m1:4      d:m1:3      d:m1:2      d:m1:1
Model:   m1:md3      m1:md2      m1:md1       m1:md
Id:     -1.00e-10   -1.00e-10   -4.43e-13   -9.62e-12
Vd:     -4.43e-01   -4.43e-01   -4.43e-01   -4.11e+00
Req:     1.00e+12    1.00e+12    1.00e+12    1.00e+12
CAP:     0.00e+00    0.00e+00    1.40e-10    1.29e-10

                        --- VDMOSFET Transistors ---
Name:          m2
Model:        bss84
Id:         -8.20e-04
Vgs:        -3.29e+00
Vds:        -6.91e-03
Vth:        -2.10e+00
Gm:          6.92e-04
Gds:         2.37e-01
Cgs:         2.00e-11
Cgd:         4.00e-11
Cbody:       9.97e-12

                        --- MOSFET Transistors ---
Name:        m:m1:1
Model:        m1:mm
Id:          1.87e+00
Vgs:         3.12e+00
Vds:         3.56e+00
Vbs:         0.00e+00
Vth:         2.04e+00
Vdsat:       1.08e+00
Gm:          3.46e+00
Gds:         4.95e-03
Gmb:         0.00e+00
Cbd:         0.00e+00
Cbs:         0.00e+00
Cgsov:       2.31e-10
Cgdov:       5.35e-12
Cgbov:       0.00e+00
Cgs:         0.00e+00
Cgd:         0.00e+00
Cgb:         0.00e+00



Date: Wed Mar 06 23:16:08 2019
Total elapsed time: 1.760 seconds.

tnom = 27
temp = 27
method = trap
totiter = 34
traniter = 0
tranpoints = 0
accept = 0
rejected = 0
matrix size = 20
fillins = 12
solver = Normal
Matrix Compiler1: 1.71 KB object code size
Matrix Compiler2:     141 opcodes
