Circuit: * C:\Users\chait\Documents\WSL\IFE_2019_Hardware\SPICE Sims\PMOS+NMOS+PTC Discharge\DischargeNMOSOnly.asc

Direct Newton iteration for .op point succeeded.
Semiconductor Device Operating Points:
                        --- Diodes ---
Name:    d:m1:4      d:m1:3      d:m1:2      d:m1:1
Model:   m1:md3      m1:md2      m1:md1       m1:md
Id:     -1.00e-10   -1.00e-10   -2.32e-13   -9.60e-12
Vd:     -2.32e-01   -2.32e-01   -2.32e-01   -4.09e+00
Req:     1.00e+12    1.00e+12    1.00e+12    1.00e+12
CAP:     0.00e+00    0.00e+00    1.75e-10    1.29e-10

                        --- VDMOSFET Transistors ---
Name:          m2
Model:        bss84
Id:         -6.81e-04
Vgs:        -3.41e+00
Vds:        -5.46e-03
Vth:        -2.10e+00
Gm:          5.21e-04
Gds:         2.61e-01
Cgs:         2.00e-11
Cgd:         4.00e-11
Cbody:       9.97e-12

                        --- MOSFET Transistors ---
Name:        m:m1:1
Model:        m1:mm
Id:          2.21e+00
Vgs:         3.21e+00
Vds:         3.44e+00
Vbs:         0.00e+00
Vth:         2.04e+00
Vdsat:       1.17e+00
Gm:          3.76e+00
Gds:         5.85e-03
Gmb:         0.00e+00
Cbd:         0.00e+00
Cbs:         0.00e+00
Cgsov:       2.31e-10
Cgdov:       5.35e-12
Cgbov:       0.00e+00
Cgs:         0.00e+00
Cgd:         0.00e+00
Cgb:         0.00e+00



Date: Thu Mar 21 15:47:43 2019
Total elapsed time: 1.936 seconds.

tnom = 27
temp = 27
method = trap
totiter = 34
traniter = 0
tranpoints = 0
accept = 0
rejected = 0
matrix size = 20
fillins = 12
solver = Normal
Matrix Compiler1: 1.71 KB object code size
Matrix Compiler2:     141 opcodes
